
T35C0 000:036 SEGGER J-Link V6.10i Log File (0001ms, 0014ms total)
T35C0 000:036 DLL Compiled: Oct 25 2016 19:31:51 (0001ms, 0014ms total)
T35C0 000:036 Logging started @ 2018-11-29 00:35 (0001ms, 0014ms total)
T35C0 000:037 JLINK_SetWarnOutHandler(...) (0000ms, 0014ms total)
T35C0 000:037 JLINK_OpenEx(...)
Firmware: J-Link ARM-OB STM32 compiled Aug 22 2012 19:52:04
Hardware: V7.00
S/N: 20090928
Feature(s): RDI,FlashDL,FlashBP,JFlash,GDBWEBSRV Webserver running on local port 19080 (0014ms, 0028ms total)
T35C0 000:037   returns O.K. (0014ms, 0028ms total)
T35C0 000:051 JLINK_SetErrorOutHandler(...) (0000ms, 0028ms total)
T35C0 000:051 JLINK_ExecCommand("ProjectFile = "C:\Users\coocx\Desktop\zhuang\air\test_ppm_generator\test_ppm_generator\MDK-ARM\JLinkSettings.ini"", ...).   returns 0x00 (0068ms, 0096ms total)
T35C0 000:119 JLINK_ExecCommand("Device = STM32F103VE", ...). Device "STM32F103VE" selected.  returns 0x00 (0000ms, 0096ms total)
T35C0 000:119 JLINK_ExecCommand("DisableConnectionTimeout", ...).   returns 0x01 (0000ms, 0096ms total)
T35C0 000:119 JLINK_GetHardwareVersion()  returns 0x11170 (0000ms, 0096ms total)
T35C0 000:119 JLINK_GetDLLVersion()  returns 61009 (0000ms, 0096ms total)
T35C0 000:119 JLINK_GetFirmwareString(...) (0000ms, 0096ms total)
T35C0 000:119 JLINK_GetDLLVersion()  returns 61009 (0000ms, 0096ms total)
T35C0 000:119 JLINK_GetCompileDateTime() (0000ms, 0096ms total)
T35C0 000:119 JLINK_GetFirmwareString(...) (0000ms, 0096ms total)
T35C0 000:119 JLINK_GetHardwareVersion()  returns 0x11170 (0001ms, 0097ms total)
T35C0 000:120 JLINK_TIF_Select(JLINKARM_TIF_SWD)  returns 0x00 (0001ms, 0098ms total)
T35C0 000:121 JLINK_SetSpeed(5000) (0000ms, 0098ms total)
T35C0 000:121 JLINK_GetId() >0x108 TIF>Found SWD-DP with ID 0x1BA01477 >0x0D TIF> >0x28 TIF> >0x0D TIF> >0x28 TIF> >0x0D TIF> >0x28 TIF> >0x0D TIF> >0x28 TIF> >0x0D TIF> >0x21 TIF> >0x0D TIF> >0x28 TIF> >0x0D TIF> >0x28 TIF> >0x0D TIF> >0x28 TIF> >0x0D TIF> >0x21 TIF> >0x0D TIF> >0x21 TIF> >0x0D TIF> >0x28 TIF> >0x0D TIF> >0x21 TIF> >0x0D TIF> >0x21 TIF> >0x0D TIF> >0x28 TIF> >0x0D TIF> >0x21 TIF> >0x0D TIF> >0x21 TIF> >0x0D TIF> >0x28 TIF> >0x0D TIF> >0x21 TIF> >0x0D TIF> >0x21 TIF> >0x0D TIF>
 >0x28 TIF> >0x0D TIF> >0x21 TIF> >0x0D TIF> >0x21 TIF> >0x0D TIF> >0x28 TIF> >0x0D TIF> >0x21 TIF> >0x0D TIF> >0x21 TIF> >0x0D TIF> >0x28 TIF> >0x0D TIF> >0x21 TIF> >0x0D TIF> >0x21 TIF> >0x108 TIF>Found SWD-DP with ID 0x1BA01477 >0x0D TIF> >0x28 TIF> >0x0D TIF> >0x28 TIF> >0x0D TIF> >0x28 TIF> >0x0D TIF> >0x28 TIF> >0x0D TIF> >0x21 TIF> >0x0D TIF> >0x28 TIF> >0x0D TIF> >0x28 TIF> >0x0D TIF> >0x21 TIF> >0x0D TIF> >0x21 TIF> >0x0D TIF> >0x21 TIF>AP-IDR: 0x14770011, Type: AHB-AP >0x0D TIF> >0x28 TIF>
 >0x0D TIF> >0x28 TIF> >0x0D TIF> >0x28 TIF> >0x0D TIF> >0x21 TIF> >0x0D TIF> >0x21 TIF> >0x0D TIF> >0x28 TIF> >0x0D TIF> >0x21 TIF> >0x0D TIF> >0x21 TIF>Found Cortex-M3 r1p1, Little endian. -- CPU_ReadMem(4 bytes @ 0xE000EDF0) -- CPU_ReadMem(4 bytes @ 0xE0002000)FPUnit: 6 code (BP) slots and 2 literal slots -- CPU_ReadMem(4 bytes @ 0xE000EDFC) -- CPU_ReadMem(4 bytes @ 0xE0001000) -- CPU_WriteMem(4 bytes @ 0xE0001000) -- CPU_ReadMem(4 bytes @ 0xE000ED88) -- CPU_WriteMem(4 bytes @ 0xE000ED88)
 -- CPU_ReadMem(4 bytes @ 0xE000ED88) -- CPU_WriteMem(4 bytes @ 0xE000ED88)CoreSight components:ROMTbl 0 @ E00FF000 -- CPU_ReadMem(16 bytes @ 0xE00FF000) -- CPU_ReadMem(16 bytes @ 0xE000EFF0) -- CPU_ReadMem(16 bytes @ 0xE000EFE0)ROMTbl 0 [0]: FFF0F000, CID: B105E00D, PID: 001BB000 SCS -- CPU_ReadMem(16 bytes @ 0xE0001FF0) -- CPU_ReadMem(16 bytes @ 0xE0001FE0)ROMTbl 0 [1]: FFF02000, CID: B105E00D, PID: 001BB002 DWT -- CPU_ReadMem(16 bytes @ 0xE0002FF0) -- CPU_ReadMem(16 bytes @ 0xE0002FE0)
ROMTbl 0 [2]: FFF03000, CID: B105E00D, PID: 000BB003 FPB -- CPU_ReadMem(16 bytes @ 0xE0000FF0) -- CPU_ReadMem(16 bytes @ 0xE0000FE0)ROMTbl 0 [3]: FFF01000, CID: B105E00D, PID: 001BB001 ITM -- CPU_ReadMem(16 bytes @ 0xE00FF010) -- CPU_ReadMem(16 bytes @ 0xE0040FF0) -- CPU_ReadMem(16 bytes @ 0xE0040FE0)ROMTbl 0 [4]: FFF41000, CID: B105900D, PID: 001BB923 TPIU-Lite -- CPU_ReadMem(16 bytes @ 0xE0041FF0) -- CPU_ReadMem(16 bytes @ 0xE0041FE0)ROMTbl 0 [5]: FFF42000, CID: B105900D, PID: 101BB924 ETM-M3
 >0x0D TIF> >0x21 TIF>  returns 0x1BA01477 (0069ms, 0167ms total)
T35C0 000:190 JLINK_GetDLLVersion()  returns 61009 (0000ms, 0167ms total)
T35C0 000:190 JLINK_CORE_GetFound()  returns 0x30000FF (0000ms, 0167ms total)
T35C0 000:190 JLINK_GetDebugInfo(0x100) -- Value=0xE00FF000  returns 0x00 (0000ms, 0167ms total)
T35C0 000:190 JLINK_GetDebugInfo(0x100) -- Value=0xE00FF000  returns 0x00 (0001ms, 0168ms total)
T35C0 000:191 JLINK_GetDebugInfo(0x101) -- Value=0xE0041000  returns 0x00 (0000ms, 0168ms total)
T35C0 000:191 JLINK_GetDebugInfo(0x102) -- Value=0x00000000  returns 0x00 (0000ms, 0168ms total)
T35C0 000:191 JLINK_GetDebugInfo(0x103) -- Value=0xE0040000  returns 0x00 (0000ms, 0168ms total)
T35C0 000:191 JLINK_GetDebugInfo(0x104) -- Value=0xE0000000  returns 0x00 (0000ms, 0168ms total)
T35C0 000:191 JLINK_GetDebugInfo(0x105) -- Value=0xE0001000  returns 0x00 (0000ms, 0168ms total)
T35C0 000:191 JLINK_GetDebugInfo(0x106) -- Value=0xE0002000  returns 0x00 (0000ms, 0168ms total)
T35C0 000:191 JLINK_GetDebugInfo(0x107) -- Value=0xE000E000  returns 0x00 (0000ms, 0168ms total)
T35C0 000:191 JLINK_GetDebugInfo(0x10C) -- Value=0xE000EDF0  returns 0x00 (0000ms, 0168ms total)
T35C0 000:191 JLINK_ReadMemU32(0xE000ED00, 0x0001 Items, ...) -- CPU is running -- CPU_ReadMem(4 bytes @ 0xE000ED00) - Data: 31 C2 1F 41  returns 0x01 (0001ms, 0169ms total)
T35C0 000:192 JLINK_SetResetType(JLINKARM_RESET_TYPE_NORMAL)  returns JLINKARM_RESET_TYPE_NORMAL (0000ms, 0169ms total)
T35C0 000:192 JLINK_Reset() -- CPU is running -- CPU_WriteMem(4 bytes @ 0xE000EDF0) -- CPU is running -- CPU_WriteMem(4 bytes @ 0xE000EDFC) >0x35 TIF> -- CPU is running -- CPU_WriteMem(4 bytes @ 0xE000ED0C) -- CPU is running -- CPU_ReadMem(4 bytes @ 0xE000EDF0) -- CPU is running -- CPU_ReadMem(4 bytes @ 0xE000EDF0) -- CPU is running -- CPU_WriteMem(4 bytes @ 0xE000EDF0) -- CPU is running -- CPU_WriteMem(4 bytes @ 0xE000EDFC) -- CPU is running -- CPU_ReadMem(4 bytes @ 0xE000EDF0)
 -- CPU_WriteMem(4 bytes @ 0xE0002000) -- CPU_ReadMem(4 bytes @ 0xE000EDFC) -- CPU_ReadMem(4 bytes @ 0xE0001000) (0021ms, 0190ms total)
T35C0 000:213 JLINK_ReadReg(R15 (PC))  returns 0x08000144 (0000ms, 0190ms total)
T35C0 000:213 JLINK_ReadReg(XPSR)  returns 0x01000000 (0000ms, 0190ms total)
T35C0 000:213 JLINK_Halt()  returns 0x00 (0000ms, 0190ms total)
T35C0 000:213 JLINK_IsHalted()  returns TRUE (0000ms, 0190ms total)
T35C0 000:213 JLINK_ReadMemU32(0xE000EDF0, 0x0001 Items, ...) -- CPU_ReadMem(4 bytes @ 0xE000EDF0) - Data: 03 00 03 00  returns 0x01 (0001ms, 0191ms total)
T35C0 000:214 JLINK_WriteU32(0xE000EDF0, 0xA05F0003) -- CPU_WriteMem(4 bytes @ 0xE000EDF0)  returns 0x00 (0001ms, 0192ms total)
T35C0 000:215 JLINK_WriteU32(0xE000EDFC, 0x01000000) -- CPU_WriteMem(4 bytes @ 0xE000EDFC)  returns 0x00 (0000ms, 0192ms total)
T35C0 000:216 JLINK_GetHWStatus(...)  returns 0x00 (0000ms, 0192ms total)
T35C0 000:216 JLINK_GetNumBPUnits(Type = 0xFFFFFF00)  returns 0x06 (0000ms, 0192ms total)
T35C0 000:216 JLINK_GetNumBPUnits(Type = 0xF0)  returns 0x2000 (0000ms, 0192ms total)
T35C0 000:216 JLINK_GetNumWPUnits()  returns 0x04 (0000ms, 0192ms total)
T35C0 000:216 JLINK_GetSpeed()  returns 0xFA0 (0000ms, 0192ms total)
T35C0 000:216 JLINK_ReadMemU32(0xE000E004, 0x0001 Items, ...) -- CPU_ReadMem(4 bytes @ 0xE000E004) - Data: 01 00 00 00  returns 0x01 (0001ms, 0193ms total)
T35C0 000:217 JLINK_ReadMemU32(0xE000E004, 0x0001 Items, ...) -- CPU_ReadMem(4 bytes @ 0xE000E004) - Data: 01 00 00 00  returns 0x01 (0001ms, 0194ms total)
T35C0 000:218 JLINK_WriteMem(0xE0001000, 0x001C Bytes, ...) - Data: 01 00 00 00 00 00 00 00 00 00 00 00 00 00 00 00 ... -- CPU_WriteMem(28 bytes @ 0xE0001000)  returns 0x1C (0001ms, 0195ms total)
T35C0 000:219 JLINK_ReadMem (0xE0001000, 0x001C Bytes, ...) -- CPU_ReadMem(28 bytes @ 0xE0001000) - Data: 01 00 00 40 00 00 00 00 00 00 00 00 00 00 00 00 ...  returns 0x00 (0001ms, 0196ms total)
T35C0 000:220 JLINK_ReadReg(R15 (PC))  returns 0x08000144 (0000ms, 0196ms total)
T35C0 000:220 JLINK_ReadReg(XPSR)  returns 0x01000000 (0000ms, 0196ms total)
T35C0 000:222 JLINK_ReadMem (0xE0001004, 0x0004 Bytes, ...) - Data: 00 00 00 00  returns 0x00 (0000ms, 0196ms total)
T35C0 000:297 JLINK_SetResetType(JLINKARM_RESET_TYPE_NORMAL)  returns JLINKARM_RESET_TYPE_NORMAL (0000ms, 0196ms total)
T35C0 000:297 JLINK_Reset() -- CPU_WriteMem(4 bytes @ 0xE000EDF0) -- CPU_WriteMem(4 bytes @ 0xE000EDFC) >0x35 TIF> -- CPU_WriteMem(4 bytes @ 0xE000ED0C) -- CPU_ReadMem(4 bytes @ 0xE000EDF0) -- CPU_ReadMem(4 bytes @ 0xE000EDF0) -- CPU_WriteMem(4 bytes @ 0xE000EDF0) -- CPU_WriteMem(4 bytes @ 0xE000EDFC) -- CPU is running -- CPU_ReadMem(4 bytes @ 0xE000EDF0) -- CPU_WriteMem(4 bytes @ 0xE0002000) -- CPU_ReadMem(4 bytes @ 0xE000EDFC) -- CPU_ReadMem(4 bytes @ 0xE0001000) (0022ms, 0218ms total)
T35C0 000:319 JLINK_ReadReg(R15 (PC))  returns 0x08000144 (0000ms, 0218ms total)
T35C0 000:319 JLINK_ReadReg(XPSR)  returns 0x01000000 (0000ms, 0218ms total)
T35C0 000:320 JLINK_ReadMem (0x08000130, 0x003C Bytes, ...) -- CPU_ReadMem(128 bytes @ 0x08000100) -- Updating C cache (128 bytes @ 0x08000100) -- Read from C cache (60 bytes @ 0x08000130) - Data: DF F8 0C D0 00 F0 2A F8 00 48 00 47 9D 12 00 08 ...  returns 0x00 (0002ms, 0220ms total)
T35C0 000:385 JLINK_ReadMem (0x40000400, 0x0010 Bytes, ...) -- CPU_ReadMem(16 bytes @ 0x40000400) - Data: 00 00 00 00 00 00 00 00 00 00 00 00 00 00 00 00  returns 0x00 (0001ms, 0221ms total)
T35C0 000:386 JLINK_ReadMem (0x40000410, 0x0004 Bytes, ...) -- CPU_ReadMem(4 bytes @ 0x40000410) - Data: 00 00 00 00  returns 0x00 (0001ms, 0222ms total)
T35C0 000:387 JLINK_ReadMem (0x40000418, 0x0014 Bytes, ...) -- CPU_ReadMem(20 bytes @ 0x40000418) - Data: 00 00 00 00 00 00 00 00 00 00 00 00 00 00 00 00 ...  returns 0x00 (0000ms, 0222ms total)
T35C0 000:388 JLINK_ReadMem (0x4000042C, 0x0004 Bytes, ...) -- CPU_ReadMem(4 bytes @ 0x4000042C) - Data: 00 00 00 00  returns 0x00 (0000ms, 0222ms total)
T35C0 000:388 JLINK_ReadMem (0x40000434, 0x000C Bytes, ...) -- CPU_ReadMem(12 bytes @ 0x40000434) - Data: 00 00 00 00 00 00 00 00 00 00 00 00  returns 0x00 (0001ms, 0223ms total)
T35C0 000:389 JLINK_ReadMem (0x40000440, 0x0004 Bytes, ...) -- CPU_ReadMem(4 bytes @ 0x40000440) - Data: 00 00 00 00  returns 0x00 (0001ms, 0224ms total)
T35C0 000:390 JLINK_ReadMem (0x40000448, 0x0004 Bytes, ...) -- CPU_ReadMem(4 bytes @ 0x40000448) - Data: 00 00 00 00  returns 0x00 (0000ms, 0224ms total)
T35C0 000:390 JLINK_ReadMem (0x4000044C, 0x0004 Bytes, ...) -- CPU_ReadMem(4 bytes @ 0x4000044C) - Data: 00 00 00 00  returns 0x00 (0001ms, 0225ms total)
T35C0 001:447 JLINK_ReadMem (0x4000043C, 0x0004 Bytes, ...) -- CPU_ReadMem(4 bytes @ 0x4000043C) - Data: 00 00 00 00  returns 0x00 (0001ms, 0226ms total)
T35C0 001:451 JLINK_ReadMem (0x4000043C, 0x0004 Bytes, ...) -- CPU_ReadMem(4 bytes @ 0x4000043C) - Data: 00 00 00 00  returns 0x00 (0001ms, 0227ms total)
T35C0 001:452 JLINK_ReadMem (0x4000043C, 0x0004 Bytes, ...) -- CPU_ReadMem(4 bytes @ 0x4000043C) - Data: 00 00 00 00  returns 0x00 (0000ms, 0227ms total)
T35C0 001:457 JLINK_ReadMem (0x40000440, 0x0004 Bytes, ...) -- CPU_ReadMem(4 bytes @ 0x40000440) - Data: 00 00 00 00  returns 0x00 (0001ms, 0228ms total)
T35C0 001:458 JLINK_ReadMem (0x40000440, 0x0004 Bytes, ...) -- CPU_ReadMem(4 bytes @ 0x40000440) - Data: 00 00 00 00  returns 0x00 (0001ms, 0229ms total)
T35C0 001:459 JLINK_ReadMem (0x40000440, 0x0004 Bytes, ...) -- CPU_ReadMem(4 bytes @ 0x40000440) - Data: 00 00 00 00  returns 0x00 (0001ms, 0230ms total)
T120C 001:476 JLINK_SetBPEx(Addr = 0x0800129C, Type = 0xFFFFFFF2)  returns 0x00000001 (0001ms, 0231ms total)
T120C 001:477 JLINK_Go() -- CPU_WriteMem(4 bytes @ 0xE0002000) -- CPU_ReadMem(4 bytes @ 0xE0001000) -- CPU_WriteMem(4 bytes @ 0xE0002008) -- CPU_WriteMem(4 bytes @ 0xE000200C) -- CPU_WriteMem(4 bytes @ 0xE0002010) -- CPU_WriteMem(4 bytes @ 0xE0002014) -- CPU_WriteMem(4 bytes @ 0xE0002018) -- CPU_WriteMem(4 bytes @ 0xE000201C) -- CPU_WriteMem(4 bytes @ 0xE0001004) (0006ms, 0237ms total)
T120C 001:584 JLINK_IsHalted()  returns TRUE (0003ms, 0240ms total)
T120C 001:587 JLINK_Halt()  returns 0x00 (0000ms, 0237ms total)
T120C 001:587 JLINK_IsHalted()  returns TRUE (0000ms, 0237ms total)
T120C 001:587 JLINK_IsHalted()  returns TRUE (0000ms, 0237ms total)
T120C 001:587 JLINK_IsHalted()  returns TRUE (0000ms, 0237ms total)
T120C 001:587 JLINK_ReadReg(R15 (PC))  returns 0x0800129C (0000ms, 0237ms total)
T120C 001:587 JLINK_ReadReg(XPSR)  returns 0x61000000 (0000ms, 0237ms total)
T120C 001:587 JLINK_ClrBPEx(BPHandle = 0x00000001)  returns 0x00 (0000ms, 0237ms total)
T120C 001:587 JLINK_ReadMemU32(0xE000ED30, 0x0001 Items, ...) -- CPU_ReadMem(4 bytes @ 0xE000ED30) - Data: 03 00 00 00  returns 0x01 (0001ms, 0238ms total)
T120C 001:588 JLINK_ReadMemU32(0xE0001028, 0x0001 Items, ...) -- CPU_ReadMem(4 bytes @ 0xE0001028) - Data: 00 00 00 00  returns 0x01 (0001ms, 0239ms total)
T120C 001:589 JLINK_ReadMemU32(0xE0001038, 0x0001 Items, ...) -- CPU_ReadMem(4 bytes @ 0xE0001038) - Data: 00 02 00 00  returns 0x01 (0001ms, 0240ms total)
T120C 001:590 JLINK_ReadMemU32(0xE0001048, 0x0001 Items, ...) -- CPU_ReadMem(4 bytes @ 0xE0001048) - Data: 00 00 00 00  returns 0x01 (0000ms, 0240ms total)
T120C 001:590 JLINK_ReadMemU32(0xE0001058, 0x0001 Items, ...) -- CPU_ReadMem(4 bytes @ 0xE0001058) - Data: 00 00 00 00  returns 0x01 (0001ms, 0241ms total)
T120C 001:591 JLINK_ReadReg(R0)  returns 0x0800129D (0000ms, 0241ms total)
T120C 001:591 JLINK_ReadReg(R1)  returns 0x20000450 (0000ms, 0241ms total)
T120C 001:591 JLINK_ReadReg(R2)  returns 0x00000000 (0000ms, 0241ms total)
T120C 001:591 JLINK_ReadReg(R3)  returns 0x0800128D (0000ms, 0241ms total)
T120C 001:591 JLINK_ReadReg(R4)  returns 0x08001318 (0000ms, 0241ms total)
T120C 001:591 JLINK_ReadReg(R5)  returns 0x08001318 (0000ms, 0241ms total)
T120C 001:591 JLINK_ReadReg(R6)  returns 0x00000000 (0000ms, 0241ms total)
T120C 001:591 JLINK_ReadReg(R7)  returns 0x00000000 (0000ms, 0241ms total)
T120C 001:591 JLINK_ReadReg(R8)  returns 0x00000000 (0000ms, 0241ms total)
T120C 001:591 JLINK_ReadReg(R9)  returns 0x20000160 (0000ms, 0241ms total)
T120C 001:591 JLINK_ReadReg(R10)  returns 0x00000000 (0000ms, 0241ms total)
T120C 001:592 JLINK_ReadReg(R11)  returns 0x00000000 (0000ms, 0242ms total)
T120C 001:592 JLINK_ReadReg(R12)  returns 0x444844AA (0000ms, 0242ms total)
T120C 001:592 JLINK_ReadReg(R13 (SP))  returns 0x20000450 (0000ms, 0242ms total)
T120C 001:592 JLINK_ReadReg(R14)  returns 0x080001A9 (0000ms, 0242ms total)
T120C 001:592 JLINK_ReadReg(R15 (PC))  returns 0x0800129C (0000ms, 0242ms total)
T120C 001:592 JLINK_ReadReg(XPSR)  returns 0x61000000 (0000ms, 0242ms total)
T120C 001:592 JLINK_ReadReg(MSP)  returns 0x20000450 (0000ms, 0242ms total)
T120C 001:592 JLINK_ReadReg(PSP)  returns 0x20001000 (0000ms, 0242ms total)
T120C 001:592 JLINK_ReadReg(CFBP)  returns 0x00000000 (0000ms, 0242ms total)
T35C0 001:593 JLINK_ReadMemU32(0xE0001004, 0x0001 Items, ...) -- CPU_ReadMem(4 bytes @ 0xE0001004) - Data: F0 06 00 00  returns 0x01 (0000ms, 0242ms total)
T35C0 001:593 JLINK_ReadMem (0x4000043C, 0x0004 Bytes, ...) -- CPU_ReadMem(4 bytes @ 0x4000043C) - Data: 00 00 00 00  returns 0x00 (0001ms, 0243ms total)
T35C0 001:594 JLINK_ReadMem (0x40000440, 0x0004 Bytes, ...) -- CPU_ReadMem(4 bytes @ 0x40000440) - Data: 00 00 00 00  returns 0x00 (0001ms, 0244ms total)
T35C0 001:596 JLINK_ReadMem (0x40000400, 0x0010 Bytes, ...) -- CPU_ReadMem(16 bytes @ 0x40000400) - Data: 00 00 00 00 00 00 00 00 00 00 00 00 00 00 00 00  returns 0x00 (0001ms, 0245ms total)
T35C0 001:597 JLINK_ReadMem (0x40000410, 0x0004 Bytes, ...) -- CPU_ReadMem(4 bytes @ 0x40000410) - Data: 00 00 00 00  returns 0x00 (0000ms, 0245ms total)
T35C0 001:597 JLINK_ReadMem (0x40000418, 0x0014 Bytes, ...) -- CPU_ReadMem(20 bytes @ 0x40000418) - Data: 00 00 00 00 00 00 00 00 00 00 00 00 00 00 00 00 ...  returns 0x00 (0001ms, 0246ms total)
T35C0 001:598 JLINK_ReadMem (0x4000042C, 0x0004 Bytes, ...) -- CPU_ReadMem(4 bytes @ 0x4000042C) - Data: 00 00 00 00  returns 0x00 (0001ms, 0247ms total)
T35C0 001:599 JLINK_ReadMem (0x40000434, 0x000C Bytes, ...) -- CPU_ReadMem(12 bytes @ 0x40000434) - Data: 00 00 00 00 00 00 00 00 00 00 00 00  returns 0x00 (0001ms, 0248ms total)
T35C0 001:600 JLINK_ReadMem (0x40000440, 0x0004 Bytes, ...) -- CPU_ReadMem(4 bytes @ 0x40000440) - Data: 00 00 00 00  returns 0x00 (0001ms, 0249ms total)
T35C0 001:601 JLINK_ReadMem (0x40000448, 0x0004 Bytes, ...) -- CPU_ReadMem(4 bytes @ 0x40000448) - Data: 00 00 00 00  returns 0x00 (0000ms, 0249ms total)
T35C0 001:601 JLINK_ReadMem (0x4000044C, 0x0004 Bytes, ...) -- CPU_ReadMem(4 bytes @ 0x4000044C) - Data: 00 00 00 00  returns 0x00 (0001ms, 0250ms total)
T35C0 001:602 JLINK_ReadMem (0x0800119C, 0x003C Bytes, ...) -- CPU_ReadMem(128 bytes @ 0x08001180) -- Updating C cache (128 bytes @ 0x08001180) -- Read from C cache (60 bytes @ 0x0800119C) - Data: 42 EA 05 22 0E 4D A8 42 01 D0 B0 42 06 D1 CF 68 ...  returns 0x00 (0002ms, 0252ms total)
T35C0 001:604 JLINK_ReadMem (0x080011D8, 0x003C Bytes, ...) -- CPU_ReadMem(64 bytes @ 0x08001200) -- Updating C cache (64 bytes @ 0x08001200) -- Read from C cache (60 bytes @ 0x080011D8) - Data: 02 62 F0 BD 00 2C 01 40 00 34 01 40 30 B5 02 6A ...  returns 0x00 (0002ms, 0254ms total)
T35C0 001:606 JLINK_ReadMem (0x08001214, 0x003C Bytes, ...) -- CPU_ReadMem(64 bytes @ 0x08001240) -- Updating C cache (64 bytes @ 0x08001240) -- Read from C cache (60 bytes @ 0x08001214) - Data: 4D 69 22 F4 80 42 42 EA 85 12 42 60 C3 61 49 68 ...  returns 0x00 (0001ms, 0255ms total)
T35C0 001:607 JLINK_ReadMem (0x08001250, 0x003C Bytes, ...) -- CPU_ReadMem(64 bytes @ 0x08001280) -- Updating C cache (64 bytes @ 0x08001280) -- Read from C cache (60 bytes @ 0x08001250) - Data: 84 61 02 62 10 BD 10 B5 03 6A 23 F0 10 03 03 62 ...  returns 0x00 (0001ms, 0256ms total)
T35C0 001:608 JLINK_ReadMem (0x0800128C, 0x003C Bytes, ...) -- CPU_ReadMem(64 bytes @ 0x080012C0) -- Updating C cache (64 bytes @ 0x080012C0) -- Read from C cache (60 bytes @ 0x0800128C) - Data: 00 20 01 E0 01 C1 12 1F 00 2A FB D1 70 47 00 00 ...  returns 0x00 (0002ms, 0258ms total)
T35C0 001:838 JLINK_SetResetType(JLINKARM_RESET_TYPE_NORMAL)  returns JLINKARM_RESET_TYPE_NORMAL (0000ms, 0258ms total)
T35C0 001:838 JLINK_Reset() -- CPU_WriteMem(4 bytes @ 0xE000EDF0) -- CPU_WriteMem(4 bytes @ 0xE000EDFC) >0x35 TIF> -- CPU_WriteMem(4 bytes @ 0xE000ED0C) -- CPU_ReadMem(4 bytes @ 0xE000EDF0) -- CPU_ReadMem(4 bytes @ 0xE000EDF0) -- CPU_WriteMem(4 bytes @ 0xE000EDF0) -- CPU_WriteMem(4 bytes @ 0xE000EDFC) -- CPU is running -- CPU_ReadMem(4 bytes @ 0xE000EDF0) -- CPU_WriteMem(4 bytes @ 0xE0002000) -- CPU_ReadMem(4 bytes @ 0xE000EDFC) -- CPU_ReadMem(4 bytes @ 0xE0001000) (0022ms, 0280ms total)
T35C0 001:860 JLINK_ReadReg(R15 (PC))  returns 0x08000144 (0000ms, 0280ms total)
T35C0 001:860 JLINK_ReadReg(XPSR)  returns 0x01000000 (0000ms, 0280ms total)
T35C0 001:860 JLINK_ReadMemU32(0xE0001004, 0x0001 Items, ...) - Data: 00 00 00 00  returns 0x01 (0000ms, 0280ms total)
T35C0 001:860 JLINK_ReadMem (0x08000130, 0x003C Bytes, ...) -- CPU_ReadMem(128 bytes @ 0x08000100) -- Updating C cache (128 bytes @ 0x08000100) -- Read from C cache (60 bytes @ 0x08000130) - Data: DF F8 0C D0 00 F0 2A F8 00 48 00 47 9D 12 00 08 ...  returns 0x00 (0002ms, 0282ms total)
T35C0 001:916 JLINK_ReadMem (0x4000043C, 0x0004 Bytes, ...) -- CPU_ReadMem(4 bytes @ 0x4000043C) - Data: 00 00 00 00  returns 0x00 (0000ms, 0282ms total)
T35C0 001:916 JLINK_ReadMem (0x40000440, 0x0004 Bytes, ...) -- CPU_ReadMem(4 bytes @ 0x40000440) - Data: 00 00 00 00  returns 0x00 (0001ms, 0283ms total)
T120C 002:383 JLINK_Go() -- CPU_ReadMem(4 bytes @ 0xE0001000) -- CPU_WriteMem(4 bytes @ 0xE0002008) -- CPU_WriteMem(4 bytes @ 0xE000200C) -- CPU_WriteMem(4 bytes @ 0xE0002010) -- CPU_WriteMem(4 bytes @ 0xE0002014) -- CPU_WriteMem(4 bytes @ 0xE0002018) -- CPU_WriteMem(4 bytes @ 0xE000201C) -- CPU_WriteMem(4 bytes @ 0xE0001004) (0006ms, 0289ms total)
T120C 002:489 JLINK_IsHalted()  returns FALSE (0000ms, 0289ms total)
T120C 002:591 JLINK_IsHalted()  returns FALSE (0000ms, 0289ms total)
T120C 002:692 JLINK_IsHalted()  returns FALSE (0001ms, 0290ms total)
T120C 002:793 JLINK_IsHalted()  returns FALSE (0001ms, 0290ms total)
T120C 002:895 JLINK_IsHalted()  returns FALSE (0000ms, 0289ms total)
T120C 002:997 JLINK_ReadMemU32(0xE0001004, 0x0001 Items, ...) -- CPU is running -- CPU_ReadMem(4 bytes @ 0xE0001004) - Data: 49 0B 9D 02  returns 0x01 (0000ms, 0289ms total)
T35C0 003:000 JLINK_ReadMem (0x4000043C, 0x0004 Bytes, ...) -- CPU is running -- CPU_ReadMem(4 bytes @ 0x4000043C) - Data: 00 00 00 00  returns 0x00 (0001ms, 0291ms total)
T35C0 003:001 JLINK_ReadMem (0x40000440, 0x0004 Bytes, ...) -- CPU is running -- CPU_ReadMem(4 bytes @ 0x40000440) - Data: 00 00 00 00  returns 0x00 (0001ms, 0292ms total)
T35C0 003:002 JLINK_ReadMem (0x40000400, 0x0010 Bytes, ...) -- CPU is running -- CPU_ReadMem(16 bytes @ 0x40000400) - Data: 01 00 00 00 00 00 00 00 00 00 00 00 00 00 00 00  returns 0x00 (0001ms, 0293ms total)
T35C0 003:003 JLINK_ReadMem (0x40000410, 0x0004 Bytes, ...) -- CPU is running -- CPU_ReadMem(4 bytes @ 0x40000410) - Data: 1F 00 00 00  returns 0x00 (0001ms, 0294ms total)
T35C0 003:004 JLINK_ReadMem (0x40000418, 0x0014 Bytes, ...) -- CPU is running -- CPU_ReadMem(20 bytes @ 0x40000418) - Data: 00 00 00 00 68 68 00 00 00 11 00 00 39 05 00 00 ...  returns 0x00 (0001ms, 0295ms total)
T35C0 003:005 JLINK_ReadMem (0x4000042C, 0x0004 Bytes, ...) -- CPU is running -- CPU_ReadMem(4 bytes @ 0x4000042C) - Data: C4 09 00 00  returns 0x00 (0001ms, 0296ms total)
T35C0 003:006 JLINK_ReadMem (0x40000434, 0x000C Bytes, ...) -- CPU is running -- CPU_ReadMem(12 bytes @ 0x40000434) - Data: 00 00 00 00 00 00 00 00 00 00 00 00  returns 0x00 (0001ms, 0297ms total)
T35C0 003:007 JLINK_ReadMem (0x40000440, 0x0004 Bytes, ...) -- CPU is running -- CPU_ReadMem(4 bytes @ 0x40000440) - Data: 00 00 00 00  returns 0x00 (0001ms, 0298ms total)
T35C0 003:008 JLINK_ReadMem (0x40000448, 0x0004 Bytes, ...) -- CPU is running -- CPU_ReadMem(4 bytes @ 0x40000448) - Data: 00 00 00 00  returns 0x00 (0001ms, 0299ms total)
T35C0 003:009 JLINK_ReadMem (0x4000044C, 0x0004 Bytes, ...) -- CPU is running -- CPU_ReadMem(4 bytes @ 0x4000044C) - Data: 01 00 00 00  returns 0x00 (0001ms, 0300ms total)
T120C 003:052 JLINK_IsHalted()  returns FALSE (0001ms, 0301ms total)
T120C 003:154 JLINK_IsHalted()  returns FALSE (0000ms, 0300ms total)
T120C 003:254 JLINK_IsHalted()  returns FALSE (0000ms, 0300ms total)
T120C 003:356 JLINK_IsHalted()  returns FALSE (0000ms, 0300ms total)
T120C 003:458 JLINK_IsHalted()  returns FALSE (0000ms, 0300ms total)
T120C 003:559 JLINK_ReadMemU32(0xE0001004, 0x0001 Items, ...) -- CPU is running - Data: 49 0B 9D 02  returns 0x01 (0000ms, 0300ms total)
T35C0 003:560 JLINK_ReadMem (0x4000043C, 0x0004 Bytes, ...) -- CPU is running -- CPU_ReadMem(4 bytes @ 0x4000043C) - Data: 00 00 00 00  returns 0x00 (0001ms, 0301ms total)
T35C0 003:561 JLINK_ReadMem (0x40000440, 0x0004 Bytes, ...) -- CPU is running -- CPU_ReadMem(4 bytes @ 0x40000440) - Data: 00 00 00 00  returns 0x00 (0001ms, 0302ms total)
T35C0 003:562 JLINK_ReadMem (0x40000400, 0x0010 Bytes, ...) -- CPU is running -- CPU_ReadMem(16 bytes @ 0x40000400) - Data: 01 00 00 00 00 00 00 00 00 00 00 00 00 00 00 00  returns 0x00 (0001ms, 0303ms total)
T35C0 003:563 JLINK_ReadMem (0x40000410, 0x0004 Bytes, ...) -- CPU is running -- CPU_ReadMem(4 bytes @ 0x40000410) - Data: 1F 00 00 00  returns 0x00 (0001ms, 0304ms total)
T35C0 003:564 JLINK_ReadMem (0x40000418, 0x0014 Bytes, ...) -- CPU is running -- CPU_ReadMem(20 bytes @ 0x40000418) - Data: 00 00 00 00 68 68 00 00 00 11 00 00 E8 04 00 00 ...  returns 0x00 (0001ms, 0305ms total)
T35C0 003:565 JLINK_ReadMem (0x4000042C, 0x0004 Bytes, ...) -- CPU is running -- CPU_ReadMem(4 bytes @ 0x4000042C) - Data: C4 09 00 00  returns 0x00 (0001ms, 0306ms total)
T35C0 003:566 JLINK_ReadMem (0x40000434, 0x000C Bytes, ...) -- CPU is running -- CPU_ReadMem(12 bytes @ 0x40000434) - Data: 00 00 00 00 00 00 00 00 00 00 00 00  returns 0x00 (0000ms, 0306ms total)
T35C0 003:566 JLINK_ReadMem (0x40000440, 0x0004 Bytes, ...) -- CPU is running -- CPU_ReadMem(4 bytes @ 0x40000440) - Data: 00 00 00 00  returns 0x00 (0001ms, 0307ms total)
T35C0 003:567 JLINK_ReadMem (0x40000448, 0x0004 Bytes, ...) -- CPU is running -- CPU_ReadMem(4 bytes @ 0x40000448) - Data: 00 00 00 00  returns 0x00 (0001ms, 0308ms total)
T35C0 003:568 JLINK_ReadMem (0x4000044C, 0x0004 Bytes, ...) -- CPU is running -- CPU_ReadMem(4 bytes @ 0x4000044C) - Data: 01 00 00 00  returns 0x00 (0001ms, 0309ms total)
T120C 003:574 JLINK_IsHalted()  returns FALSE (0001ms, 0310ms total)
T120C 003:676 JLINK_IsHalted()  returns FALSE (0000ms, 0309ms total)
T120C 003:778 JLINK_IsHalted()  returns FALSE (0000ms, 0309ms total)
T120C 003:880 JLINK_IsHalted()  returns FALSE (0000ms, 0309ms total)
T120C 003:980 JLINK_IsHalted()  returns FALSE (0000ms, 0309ms total)
T120C 004:082 JLINK_ReadMemU32(0xE0001004, 0x0001 Items, ...) -- CPU is running - Data: 49 0B 9D 02  returns 0x01 (0000ms, 0309ms total)
T35C0 004:083 JLINK_ReadMem (0x4000043C, 0x0004 Bytes, ...) -- CPU is running -- CPU_ReadMem(4 bytes @ 0x4000043C) - Data: 00 00 00 00  returns 0x00 (0001ms, 0310ms total)
T35C0 004:084 JLINK_ReadMem (0x40000440, 0x0004 Bytes, ...) -- CPU is running -- CPU_ReadMem(4 bytes @ 0x40000440) - Data: 00 00 00 00  returns 0x00 (0000ms, 0310ms total)
T35C0 004:084 JLINK_ReadMem (0x40000400, 0x0010 Bytes, ...) -- CPU is running -- CPU_ReadMem(16 bytes @ 0x40000400) - Data: 01 00 00 00 00 00 00 00 00 00 00 00 00 00 00 00  returns 0x00 (0001ms, 0311ms total)
T35C0 004:085 JLINK_ReadMem (0x40000410, 0x0004 Bytes, ...) -- CPU is running -- CPU_ReadMem(4 bytes @ 0x40000410) - Data: 1F 00 00 00  returns 0x00 (0001ms, 0312ms total)
T35C0 004:086 JLINK_ReadMem (0x40000418, 0x0014 Bytes, ...) -- CPU is running -- CPU_ReadMem(20 bytes @ 0x40000418) - Data: 00 00 00 00 68 68 00 00 00 11 00 00 64 01 00 00 ...  returns 0x00 (0001ms, 0313ms total)
T35C0 004:087 JLINK_ReadMem (0x4000042C, 0x0004 Bytes, ...) -- CPU is running -- CPU_ReadMem(4 bytes @ 0x4000042C) - Data: C4 09 00 00  returns 0x00 (0001ms, 0314ms total)
T35C0 004:088 JLINK_ReadMem (0x40000434, 0x000C Bytes, ...) -- CPU is running -- CPU_ReadMem(12 bytes @ 0x40000434) - Data: 00 00 00 00 00 00 00 00 00 00 00 00  returns 0x00 (0000ms, 0314ms total)
T35C0 004:088 JLINK_ReadMem (0x40000440, 0x0004 Bytes, ...) -- CPU is running -- CPU_ReadMem(4 bytes @ 0x40000440) - Data: 00 00 00 00  returns 0x00 (0001ms, 0315ms total)
T35C0 004:089 JLINK_ReadMem (0x40000448, 0x0004 Bytes, ...) -- CPU is running -- CPU_ReadMem(4 bytes @ 0x40000448) - Data: 00 00 00 00  returns 0x00 (0001ms, 0316ms total)
T35C0 004:090 JLINK_ReadMem (0x4000044C, 0x0004 Bytes, ...) -- CPU is running -- CPU_ReadMem(4 bytes @ 0x4000044C) - Data: 01 00 00 00  returns 0x00 (0001ms, 0317ms total)
T120C 004:094 JLINK_IsHalted()  returns FALSE (0001ms, 0318ms total)
T120C 004:196 JLINK_IsHalted()  returns FALSE (0000ms, 0317ms total)
T120C 004:296 JLINK_IsHalted()  returns FALSE (0000ms, 0317ms total)
T120C 004:398 JLINK_IsHalted()  returns FALSE (0000ms, 0317ms total)
T120C 004:500 JLINK_IsHalted()  returns FALSE (0000ms, 0317ms total)
T120C 004:602 JLINK_ReadMemU32(0xE0001004, 0x0001 Items, ...) -- CPU is running - Data: 49 0B 9D 02  returns 0x01 (0000ms, 0317ms total)
T35C0 004:603 JLINK_ReadMem (0x4000043C, 0x0004 Bytes, ...) -- CPU is running -- CPU_ReadMem(4 bytes @ 0x4000043C) - Data: 00 00 00 00  returns 0x00 (0001ms, 0318ms total)
T35C0 004:604 JLINK_ReadMem (0x40000440, 0x0004 Bytes, ...) -- CPU is running -- CPU_ReadMem(4 bytes @ 0x40000440) - Data: 00 00 00 00  returns 0x00 (0001ms, 0319ms total)
T35C0 004:605 JLINK_ReadMem (0x40000400, 0x0010 Bytes, ...) -- CPU is running -- CPU_ReadMem(16 bytes @ 0x40000400) - Data: 01 00 00 00 00 00 00 00 00 00 00 00 00 00 00 00  returns 0x00 (0001ms, 0320ms total)
T35C0 004:606 JLINK_ReadMem (0x40000410, 0x0004 Bytes, ...) -- CPU is running -- CPU_ReadMem(4 bytes @ 0x40000410) - Data: 1F 00 00 00  returns 0x00 (0001ms, 0321ms total)
T35C0 004:607 JLINK_ReadMem (0x40000418, 0x0014 Bytes, ...) -- CPU is running -- CPU_ReadMem(20 bytes @ 0x40000418) - Data: 00 00 00 00 68 68 00 00 00 11 00 00 F6 04 00 00 ...  returns 0x00 (0001ms, 0322ms total)
T35C0 004:608 JLINK_ReadMem (0x4000042C, 0x0004 Bytes, ...) -- CPU is running -- CPU_ReadMem(4 bytes @ 0x4000042C) - Data: C4 09 00 00  returns 0x00 (0001ms, 0323ms total)
T35C0 004:609 JLINK_ReadMem (0x40000434, 0x000C Bytes, ...) -- CPU is running -- CPU_ReadMem(12 bytes @ 0x40000434) - Data: 00 00 00 00 00 00 00 00 00 00 00 00  returns 0x00 (0001ms, 0324ms total)
T35C0 004:610 JLINK_ReadMem (0x40000440, 0x0004 Bytes, ...) -- CPU is running -- CPU_ReadMem(4 bytes @ 0x40000440) - Data: 00 00 00 00  returns 0x00 (0001ms, 0325ms total)
T35C0 004:611 JLINK_ReadMem (0x40000448, 0x0004 Bytes, ...) -- CPU is running -- CPU_ReadMem(4 bytes @ 0x40000448) - Data: 00 00 00 00  returns 0x00 (0001ms, 0326ms total)
T35C0 004:612 JLINK_ReadMem (0x4000044C, 0x0004 Bytes, ...) -- CPU is running -- CPU_ReadMem(4 bytes @ 0x4000044C) - Data: 01 00 00 00  returns 0x00 (0001ms, 0327ms total)
T120C 004:619 JLINK_IsHalted()  returns FALSE (0001ms, 0328ms total)
T120C 004:720 JLINK_IsHalted()  returns FALSE (0000ms, 0327ms total)
T120C 004:822 JLINK_IsHalted()  returns FALSE (0000ms, 0327ms total)
T120C 004:924 JLINK_IsHalted()  returns FALSE (0000ms, 0327ms total)
T120C 005:026 JLINK_IsHalted()  returns FALSE (0000ms, 0327ms total)
T35C0 005:107 JLINK_ReadMem (0x0800129C, 0x0002 Bytes, ...) -- CPU is running -- CPU_ReadMem(2 bytes @ 0x0800129C) - Data: 08 B5  returns 0x00 (0001ms, 0328ms total)
T35C0 005:108 JLINK_ReadMem (0x0800129E, 0x0002 Bytes, ...) -- CPU is running -- CPU_ReadMem(2 bytes @ 0x0800129E) - Data: FF F7  returns 0x00 (0000ms, 0328ms total)
T120C 005:127 JLINK_ReadMemU32(0xE0001004, 0x0001 Items, ...) -- CPU is running - Data: 49 0B 9D 02  returns 0x01 (0000ms, 0328ms total)
T35C0 005:134 JLINK_ReadMem (0x4000043C, 0x0004 Bytes, ...) -- CPU is running -- CPU_ReadMem(4 bytes @ 0x4000043C) - Data: 00 00 00 00  returns 0x00 (0001ms, 0329ms total)
T35C0 005:135 JLINK_ReadMem (0x40000440, 0x0004 Bytes, ...) -- CPU is running -- CPU_ReadMem(4 bytes @ 0x40000440) - Data: 00 00 00 00  returns 0x00 (0000ms, 0329ms total)
T35C0 005:135 JLINK_ReadMem (0x40000400, 0x0010 Bytes, ...) -- CPU is running -- CPU_ReadMem(16 bytes @ 0x40000400) - Data: 01 00 00 00 00 00 00 00 00 00 00 00 00 00 00 00  returns 0x00 (0001ms, 0330ms total)
T35C0 005:136 JLINK_ReadMem (0x40000410, 0x0004 Bytes, ...) -- CPU is running -- CPU_ReadMem(4 bytes @ 0x40000410) - Data: 1F 00 00 00  returns 0x00 (0001ms, 0331ms total)
T35C0 005:137 JLINK_ReadMem (0x40000418, 0x0014 Bytes, ...) -- CPU is running -- CPU_ReadMem(20 bytes @ 0x40000418) - Data: 00 00 00 00 68 68 00 00 00 11 00 00 59 04 00 00 ...  returns 0x00 (0001ms, 0332ms total)
T35C0 005:138 JLINK_ReadMem (0x4000042C, 0x0004 Bytes, ...) -- CPU is running -- CPU_ReadMem(4 bytes @ 0x4000042C) - Data: C4 09 00 00  returns 0x00 (0000ms, 0332ms total)
T35C0 005:138 JLINK_ReadMem (0x40000434, 0x000C Bytes, ...) -- CPU is running -- CPU_ReadMem(12 bytes @ 0x40000434) - Data: 00 00 00 00 00 00 00 00 00 00 00 00  returns 0x00 (0001ms, 0333ms total)
T35C0 005:139 JLINK_ReadMem (0x40000440, 0x0004 Bytes, ...) -- CPU is running -- CPU_ReadMem(4 bytes @ 0x40000440) - Data: 00 00 00 00  returns 0x00 (0001ms, 0334ms total)
T35C0 005:140 JLINK_ReadMem (0x40000448, 0x0004 Bytes, ...) -- CPU is running -- CPU_ReadMem(4 bytes @ 0x40000448) - Data: 00 00 00 00  returns 0x00 (0001ms, 0335ms total)
T35C0 005:141 JLINK_ReadMem (0x4000044C, 0x0004 Bytes, ...) -- CPU is running -- CPU_ReadMem(4 bytes @ 0x4000044C) - Data: 01 00 00 00  returns 0x00 (0001ms, 0336ms total)
T120C 005:145 JLINK_IsHalted()  returns FALSE (0001ms, 0337ms total)
T120C 005:247 JLINK_IsHalted()  returns FALSE (0000ms, 0336ms total)
T120C 005:348 JLINK_IsHalted()  returns FALSE (0000ms, 0336ms total)
T120C 005:449 JLINK_IsHalted()  returns FALSE (0000ms, 0336ms total)
T120C 005:551 JLINK_IsHalted()  returns FALSE (0000ms, 0336ms total)
T120C 005:653 JLINK_ReadMemU32(0xE0001004, 0x0001 Items, ...) -- CPU is running - Data: 49 0B 9D 02  returns 0x01 (0000ms, 0336ms total)
T35C0 005:654 JLINK_ReadMem (0x4000043C, 0x0004 Bytes, ...) -- CPU is running -- CPU_ReadMem(4 bytes @ 0x4000043C) - Data: 00 00 00 00  returns 0x00 (0001ms, 0337ms total)
T35C0 005:655 JLINK_ReadMem (0x40000440, 0x0004 Bytes, ...) -- CPU is running -- CPU_ReadMem(4 bytes @ 0x40000440) - Data: 00 00 00 00  returns 0x00 (0001ms, 0338ms total)
T35C0 005:656 JLINK_ReadMem (0x40000400, 0x0010 Bytes, ...) -- CPU is running -- CPU_ReadMem(16 bytes @ 0x40000400) - Data: 01 00 00 00 00 00 00 00 00 00 00 00 00 00 00 00  returns 0x00 (0000ms, 0338ms total)
T35C0 005:657 JLINK_ReadMem (0x40000410, 0x0004 Bytes, ...) -- CPU is running -- CPU_ReadMem(4 bytes @ 0x40000410) - Data: 1F 00 00 00  returns 0x00 (0000ms, 0338ms total)
T35C0 005:657 JLINK_ReadMem (0x40000418, 0x0014 Bytes, ...) -- CPU is running -- CPU_ReadMem(20 bytes @ 0x40000418) - Data: 00 00 00 00 68 68 00 00 00 11 00 00 F2 03 00 00 ...  returns 0x00 (0001ms, 0339ms total)
T35C0 005:658 JLINK_ReadMem (0x4000042C, 0x0004 Bytes, ...) -- CPU is running -- CPU_ReadMem(4 bytes @ 0x4000042C) - Data: C4 09 00 00  returns 0x00 (0001ms, 0340ms total)
T35C0 005:659 JLINK_ReadMem (0x40000434, 0x000C Bytes, ...) -- CPU is running -- CPU_ReadMem(12 bytes @ 0x40000434) - Data: 00 00 00 00 00 00 00 00 00 00 00 00  returns 0x00 (0001ms, 0341ms total)
T35C0 005:660 JLINK_ReadMem (0x40000440, 0x0004 Bytes, ...) -- CPU is running -- CPU_ReadMem(4 bytes @ 0x40000440) - Data: 00 00 00 00  returns 0x00 (0001ms, 0342ms total)
T35C0 005:661 JLINK_ReadMem (0x40000448, 0x0004 Bytes, ...) -- CPU is running -- CPU_ReadMem(4 bytes @ 0x40000448) - Data: 00 00 00 00  returns 0x00 (0000ms, 0342ms total)
T35C0 005:661 JLINK_ReadMem (0x4000044C, 0x0004 Bytes, ...) -- CPU is running -- CPU_ReadMem(4 bytes @ 0x4000044C) - Data: 01 00 00 00  returns 0x00 (0001ms, 0343ms total)
T120C 005:667 JLINK_IsHalted()  returns FALSE (0000ms, 0343ms total)
T120C 005:769 JLINK_IsHalted()  returns FALSE (0000ms, 0343ms total)
T120C 005:870 JLINK_IsHalted()  returns FALSE (0000ms, 0343ms total)
T120C 005:972 JLINK_IsHalted()  returns FALSE (0000ms, 0343ms total)
T120C 006:074 JLINK_IsHalted()  returns FALSE (0000ms, 0343ms total)
T120C 006:175 JLINK_ReadMemU32(0xE0001004, 0x0001 Items, ...) -- CPU is running - Data: 49 0B 9D 02  returns 0x01 (0000ms, 0343ms total)
T35C0 006:176 JLINK_ReadMem (0x4000043C, 0x0004 Bytes, ...) -- CPU is running -- CPU_ReadMem(4 bytes @ 0x4000043C) - Data: 00 00 00 00  returns 0x00 (0001ms, 0344ms total)
T35C0 006:177 JLINK_ReadMem (0x40000440, 0x0004 Bytes, ...) -- CPU is running -- CPU_ReadMem(4 bytes @ 0x40000440) - Data: 00 00 00 00  returns 0x00 (0000ms, 0344ms total)
T35C0 006:177 JLINK_ReadMem (0x40000400, 0x0010 Bytes, ...) -- CPU is running -- CPU_ReadMem(16 bytes @ 0x40000400) - Data: 01 00 00 00 00 00 00 00 00 00 00 00 00 00 00 00  returns 0x00 (0001ms, 0345ms total)
T35C0 006:178 JLINK_ReadMem (0x40000410, 0x0004 Bytes, ...) -- CPU is running -- CPU_ReadMem(4 bytes @ 0x40000410) - Data: 1F 00 00 00  returns 0x00 (0001ms, 0346ms total)
T35C0 006:179 JLINK_ReadMem (0x40000418, 0x0014 Bytes, ...) -- CPU is running -- CPU_ReadMem(20 bytes @ 0x40000418) - Data: 00 00 00 00 68 68 00 00 00 11 00 00 6E 03 00 00 ...  returns 0x00 (0001ms, 0347ms total)
T35C0 006:180 JLINK_ReadMem (0x4000042C, 0x0004 Bytes, ...) -- CPU is running -- CPU_ReadMem(4 bytes @ 0x4000042C) - Data: C4 09 00 00  returns 0x00 (0001ms, 0348ms total)
T35C0 006:181 JLINK_ReadMem (0x40000434, 0x000C Bytes, ...) -- CPU is running -- CPU_ReadMem(12 bytes @ 0x40000434) - Data: 00 00 00 00 00 00 00 00 00 00 00 00  returns 0x00 (0001ms, 0349ms total)
T35C0 006:182 JLINK_ReadMem (0x40000440, 0x0004 Bytes, ...) -- CPU is running -- CPU_ReadMem(4 bytes @ 0x40000440) - Data: 00 00 00 00  returns 0x00 (0000ms, 0349ms total)
T35C0 006:182 JLINK_ReadMem (0x40000448, 0x0004 Bytes, ...) -- CPU is running -- CPU_ReadMem(4 bytes @ 0x40000448) - Data: 00 00 00 00  returns 0x00 (0001ms, 0350ms total)
T35C0 006:183 JLINK_ReadMem (0x4000044C, 0x0004 Bytes, ...) -- CPU is running -- CPU_ReadMem(4 bytes @ 0x4000044C) - Data: 01 00 00 00  returns 0x00 (0001ms, 0351ms total)
T120C 006:188 JLINK_IsHalted()  returns FALSE (0001ms, 0352ms total)
T120C 006:290 JLINK_IsHalted()  returns FALSE (0000ms, 0351ms total)
T120C 006:392 JLINK_IsHalted()  returns FALSE (0000ms, 0351ms total)
T120C 006:494 JLINK_IsHalted()  returns FALSE (0000ms, 0351ms total)
T120C 006:595 JLINK_IsHalted()  returns FALSE (0000ms, 0351ms total)
T120C 006:697 JLINK_ReadMemU32(0xE0001004, 0x0001 Items, ...) -- CPU is running - Data: 49 0B 9D 02  returns 0x01 (0000ms, 0351ms total)
T35C0 006:698 JLINK_ReadMem (0x40000440, 0x0004 Bytes, ...) -- CPU is running -- CPU_ReadMem(4 bytes @ 0x40000440) - Data: 00 00 00 00  returns 0x00 (0000ms, 0351ms total)
T35C0 006:698 JLINK_ReadMem (0x40000400, 0x0010 Bytes, ...) -- CPU is running -- CPU_ReadMem(16 bytes @ 0x40000400) - Data: 01 00 00 00 00 00 00 00 00 00 00 00 00 00 00 00  returns 0x00 (0001ms, 0352ms total)
T35C0 006:699 JLINK_ReadMem (0x40000410, 0x0004 Bytes, ...) -- CPU is running -- CPU_ReadMem(4 bytes @ 0x40000410) - Data: 1F 00 00 00  returns 0x00 (0001ms, 0353ms total)
T35C0 006:700 JLINK_ReadMem (0x40000418, 0x0014 Bytes, ...) -- CPU is running -- CPU_ReadMem(20 bytes @ 0x40000418) - Data: 00 00 00 00 68 68 00 00 00 11 00 00 7A 05 00 00 ...  returns 0x00 (0001ms, 0354ms total)
T35C0 006:701 JLINK_ReadMem (0x4000042C, 0x0004 Bytes, ...) -- CPU is running -- CPU_ReadMem(4 bytes @ 0x4000042C) - Data: C4 09 00 00  returns 0x00 (0001ms, 0355ms total)
T35C0 006:702 JLINK_ReadMem (0x40000434, 0x000C Bytes, ...) -- CPU is running -- CPU_ReadMem(12 bytes @ 0x40000434) - Data: 00 00 00 00 00 00 00 00 00 00 00 00  returns 0x00 (0001ms, 0356ms total)
T35C0 006:703 JLINK_ReadMem (0x40000440, 0x0004 Bytes, ...) -- CPU is running -- CPU_ReadMem(4 bytes @ 0x40000440) - Data: 00 00 00 00  returns 0x00 (0001ms, 0357ms total)
T35C0 006:704 JLINK_ReadMem (0x40000448, 0x0004 Bytes, ...) -- CPU is running -- CPU_ReadMem(4 bytes @ 0x40000448) - Data: 00 00 00 00  returns 0x00 (0000ms, 0357ms total)
T35C0 006:704 JLINK_ReadMem (0x4000044C, 0x0004 Bytes, ...) -- CPU is running -- CPU_ReadMem(4 bytes @ 0x4000044C) - Data: 01 00 00 00  returns 0x00 (0001ms, 0358ms total)
T120C 006:709 JLINK_IsHalted()  returns FALSE (0001ms, 0359ms total)
T120C 006:811 JLINK_IsHalted()  returns FALSE (0000ms, 0358ms total)
T120C 006:912 JLINK_IsHalted()  returns FALSE (0000ms, 0358ms total)
T120C 007:013 JLINK_IsHalted()  returns FALSE (0000ms, 0358ms total)
T120C 007:114 JLINK_IsHalted()  returns FALSE (0000ms, 0358ms total)
T120C 007:216 JLINK_ReadMemU32(0xE0001004, 0x0001 Items, ...) -- CPU is running - Data: 49 0B 9D 02  returns 0x01 (0000ms, 0358ms total)
T35C0 007:217 JLINK_ReadMem (0x40000440, 0x0004 Bytes, ...) -- CPU is running -- CPU_ReadMem(4 bytes @ 0x40000440) - Data: 00 00 00 00  returns 0x00 (0001ms, 0359ms total)
T35C0 007:218 JLINK_ReadMem (0x40000400, 0x0010 Bytes, ...) -- CPU is running -- CPU_ReadMem(16 bytes @ 0x40000400) - Data: 01 00 00 00 00 00 00 00 00 00 00 00 00 00 00 00  returns 0x00 (0001ms, 0360ms total)
T35C0 007:219 JLINK_ReadMem (0x40000410, 0x0004 Bytes, ...) -- CPU is running -- CPU_ReadMem(4 bytes @ 0x40000410) - Data: 1F 00 00 00  returns 0x00 (0001ms, 0361ms total)
T35C0 007:220 JLINK_ReadMem (0x40000418, 0x0014 Bytes, ...) -- CPU is running -- CPU_ReadMem(20 bytes @ 0x40000418) - Data: 00 00 00 00 68 68 00 00 00 11 00 00 63 01 00 00 ...  returns 0x00 (0001ms, 0362ms total)
T35C0 007:221 JLINK_ReadMem (0x4000042C, 0x0004 Bytes, ...) -- CPU is running -- CPU_ReadMem(4 bytes @ 0x4000042C) - Data: C4 09 00 00  returns 0x00 (0000ms, 0362ms total)
T35C0 007:221 JLINK_ReadMem (0x40000434, 0x000C Bytes, ...) -- CPU is running -- CPU_ReadMem(12 bytes @ 0x40000434) - Data: 00 00 00 00 00 00 00 00 00 00 00 00  returns 0x00 (0001ms, 0363ms total)
T35C0 007:222 JLINK_ReadMem (0x40000440, 0x0004 Bytes, ...) -- CPU is running -- CPU_ReadMem(4 bytes @ 0x40000440) - Data: 00 00 00 00  returns 0x00 (0001ms, 0364ms total)
T35C0 007:223 JLINK_ReadMem (0x40000448, 0x0004 Bytes, ...) -- CPU is running -- CPU_ReadMem(4 bytes @ 0x40000448) - Data: 00 00 00 00  returns 0x00 (0001ms, 0365ms total)
T35C0 007:224 JLINK_ReadMem (0x4000044C, 0x0004 Bytes, ...) -- CPU is running -- CPU_ReadMem(4 bytes @ 0x4000044C) - Data: 01 00 00 00  returns 0x00 (0000ms, 0365ms total)
T120C 007:229 JLINK_IsHalted()  returns FALSE (0001ms, 0367ms total)
T120C 007:330 JLINK_IsHalted()  returns FALSE (0000ms, 0366ms total)
T120C 007:431 JLINK_IsHalted()  returns FALSE (0000ms, 0366ms total)
T120C 007:533 JLINK_IsHalted()  returns FALSE (0001ms, 0367ms total)
T120C 007:635 JLINK_IsHalted()  returns FALSE (0000ms, 0366ms total)
T120C 007:736 JLINK_ReadMemU32(0xE0001004, 0x0001 Items, ...) -- CPU is running - Data: 49 0B 9D 02  returns 0x01 (0000ms, 0366ms total)
T35C0 007:737 JLINK_ReadMem (0x40000440, 0x0004 Bytes, ...) -- CPU is running -- CPU_ReadMem(4 bytes @ 0x40000440) - Data: 00 00 00 00  returns 0x00 (0000ms, 0366ms total)
T35C0 007:737 JLINK_ReadMem (0x40000400, 0x0010 Bytes, ...) -- CPU is running -- CPU_ReadMem(16 bytes @ 0x40000400) - Data: 01 00 00 00 00 00 00 00 00 00 00 00 00 00 00 00  returns 0x00 (0001ms, 0367ms total)
T35C0 007:738 JLINK_ReadMem (0x40000410, 0x0004 Bytes, ...) -- CPU is running -- CPU_ReadMem(4 bytes @ 0x40000410) - Data: 1F 00 00 00  returns 0x00 (0001ms, 0368ms total)
T35C0 007:739 JLINK_ReadMem (0x40000418, 0x0014 Bytes, ...) -- CPU is running -- CPU_ReadMem(20 bytes @ 0x40000418) - Data: 00 00 00 00 68 68 00 00 00 11 00 00 61 01 00 00 ...  returns 0x00 (0001ms, 0369ms total)
T35C0 007:740 JLINK_ReadMem (0x4000042C, 0x0004 Bytes, ...) -- CPU is running -- CPU_ReadMem(4 bytes @ 0x4000042C) - Data: C4 09 00 00  returns 0x00 (0001ms, 0370ms total)
T35C0 007:741 JLINK_ReadMem (0x40000434, 0x000C Bytes, ...) -- CPU is running -- CPU_ReadMem(12 bytes @ 0x40000434) - Data: 00 00 00 00 00 00 00 00 00 00 00 00  returns 0x00 (0001ms, 0371ms total)
T35C0 007:742 JLINK_ReadMem (0x40000440, 0x0004 Bytes, ...) -- CPU is running -- CPU_ReadMem(4 bytes @ 0x40000440) - Data: 00 00 00 00  returns 0x00 (0000ms, 0371ms total)
T35C0 007:742 JLINK_ReadMem (0x40000448, 0x0004 Bytes, ...) -- CPU is running -- CPU_ReadMem(4 bytes @ 0x40000448) - Data: 00 00 00 00  returns 0x00 (0001ms, 0372ms total)
T35C0 007:743 JLINK_ReadMem (0x4000044C, 0x0004 Bytes, ...) -- CPU is running -- CPU_ReadMem(4 bytes @ 0x4000044C) - Data: 01 00 00 00  returns 0x00 (0001ms, 0373ms total)
T120C 007:747 JLINK_IsHalted()  returns FALSE (0001ms, 0374ms total)
T120C 007:849 JLINK_IsHalted()  returns FALSE (0000ms, 0373ms total)
T120C 007:950 JLINK_IsHalted()  returns FALSE (0000ms, 0373ms total)
T120C 008:050 JLINK_IsHalted()  returns FALSE (0001ms, 0374ms total)
T120C 008:152 JLINK_IsHalted()  returns FALSE (0000ms, 0373ms total)
T120C 008:254 JLINK_ReadMemU32(0xE0001004, 0x0001 Items, ...) -- CPU is running - Data: 49 0B 9D 02  returns 0x01 (0000ms, 0373ms total)
T35C0 008:255 JLINK_ReadMem (0x40000440, 0x0004 Bytes, ...) -- CPU is running -- CPU_ReadMem(4 bytes @ 0x40000440) - Data: 00 00 00 00  returns 0x00 (0001ms, 0374ms total)
T35C0 008:256 JLINK_ReadMem (0x40000400, 0x0010 Bytes, ...) -- CPU is running -- CPU_ReadMem(16 bytes @ 0x40000400) - Data: 01 00 00 00 00 00 00 00 00 00 00 00 00 00 00 00  returns 0x00 (0001ms, 0375ms total)
T35C0 008:257 JLINK_ReadMem (0x40000410, 0x0004 Bytes, ...) -- CPU is running -- CPU_ReadMem(4 bytes @ 0x40000410) - Data: 1F 00 00 00  returns 0x00 (0001ms, 0376ms total)
T35C0 008:258 JLINK_ReadMem (0x40000418, 0x0014 Bytes, ...) -- CPU is running -- CPU_ReadMem(20 bytes @ 0x40000418) - Data: 00 00 00 00 68 68 00 00 00 11 00 00 EC 02 00 00 ...  returns 0x00 (0000ms, 0376ms total)
T35C0 008:258 JLINK_ReadMem (0x4000042C, 0x0004 Bytes, ...) -- CPU is running -- CPU_ReadMem(4 bytes @ 0x4000042C) - Data: C4 09 00 00  returns 0x00 (0001ms, 0377ms total)
T35C0 008:259 JLINK_ReadMem (0x40000434, 0x000C Bytes, ...) -- CPU is running -- CPU_ReadMem(12 bytes @ 0x40000434) - Data: 00 00 00 00 00 00 00 00 00 00 00 00  returns 0x00 (0001ms, 0378ms total)
T35C0 008:260 JLINK_ReadMem (0x40000440, 0x0004 Bytes, ...) -- CPU is running -- CPU_ReadMem(4 bytes @ 0x40000440) - Data: 00 00 00 00  returns 0x00 (0001ms, 0379ms total)
T35C0 008:261 JLINK_ReadMem (0x40000448, 0x0004 Bytes, ...) -- CPU is running -- CPU_ReadMem(4 bytes @ 0x40000448) - Data: 00 00 00 00  returns 0x00 (0001ms, 0380ms total)
T35C0 008:262 JLINK_ReadMem (0x4000044C, 0x0004 Bytes, ...) -- CPU is running -- CPU_ReadMem(4 bytes @ 0x4000044C) - Data: 01 00 00 00  returns 0x00 (0000ms, 0380ms total)
T120C 008:267 JLINK_IsHalted()  returns FALSE (0001ms, 0381ms total)
T120C 008:369 JLINK_IsHalted()  returns FALSE (0000ms, 0380ms total)
T120C 008:470 JLINK_IsHalted()  returns FALSE (0000ms, 0380ms total)
T120C 008:571 JLINK_IsHalted()  returns FALSE (0000ms, 0380ms total)
T120C 008:672 JLINK_IsHalted()  returns FALSE (0000ms, 0380ms total)
T120C 008:773 JLINK_ReadMemU32(0xE0001004, 0x0001 Items, ...) -- CPU is running - Data: 49 0B 9D 02  returns 0x01 (0000ms, 0380ms total)
T35C0 008:775 JLINK_ReadMem (0x40000440, 0x0004 Bytes, ...) -- CPU is running -- CPU_ReadMem(4 bytes @ 0x40000440) - Data: 00 00 00 00  returns 0x00 (0001ms, 0381ms total)
T35C0 008:776 JLINK_ReadMem (0x40000400, 0x0010 Bytes, ...) -- CPU is running -- CPU_ReadMem(16 bytes @ 0x40000400) - Data: 01 00 00 00 00 00 00 00 00 00 00 00 00 00 00 00  returns 0x00 (0001ms, 0382ms total)
T35C0 008:777 JLINK_ReadMem (0x40000410, 0x0004 Bytes, ...) -- CPU is running -- CPU_ReadMem(4 bytes @ 0x40000410) - Data: 1F 00 00 00  returns 0x00 (0001ms, 0383ms total)
T35C0 008:778 JLINK_ReadMem (0x40000418, 0x0014 Bytes, ...) -- CPU is running -- CPU_ReadMem(20 bytes @ 0x40000418) - Data: 00 00 00 00 68 68 00 00 00 11 00 00 2A 05 00 00 ...  returns 0x00 (0001ms, 0384ms total)
T35C0 008:779 JLINK_ReadMem (0x4000042C, 0x0004 Bytes, ...) -- CPU is running -- CPU_ReadMem(4 bytes @ 0x4000042C) - Data: C4 09 00 00  returns 0x00 (0001ms, 0385ms total)
T35C0 008:780 JLINK_ReadMem (0x40000434, 0x000C Bytes, ...) -- CPU is running -- CPU_ReadMem(12 bytes @ 0x40000434) - Data: 00 00 00 00 00 00 00 00 00 00 00 00  returns 0x00 (0001ms, 0386ms total)
T35C0 008:781 JLINK_ReadMem (0x40000440, 0x0004 Bytes, ...) -- CPU is running -- CPU_ReadMem(4 bytes @ 0x40000440) - Data: 00 00 00 00  returns 0x00 (0001ms, 0387ms total)
T35C0 008:782 JLINK_ReadMem (0x40000448, 0x0004 Bytes, ...) -- CPU is running -- CPU_ReadMem(4 bytes @ 0x40000448) - Data: 00 00 00 00  returns 0x00 (0001ms, 0388ms total)
T35C0 008:783 JLINK_ReadMem (0x4000044C, 0x0004 Bytes, ...) -- CPU is running -- CPU_ReadMem(4 bytes @ 0x4000044C) - Data: 01 00 00 00  returns 0x00 (0000ms, 0388ms total)
T120C 008:791 JLINK_IsHalted()  returns FALSE (0001ms, 0390ms total)
T120C 008:893 JLINK_IsHalted()  returns FALSE (0000ms, 0389ms total)
T120C 008:995 JLINK_IsHalted()  returns FALSE (0000ms, 0389ms total)
T120C 009:097 JLINK_IsHalted()  returns FALSE (0000ms, 0389ms total)
T120C 009:198 JLINK_IsHalted()  returns FALSE (0000ms, 0389ms total)
T120C 009:299 JLINK_ReadMemU32(0xE0001004, 0x0001 Items, ...) -- CPU is running - Data: 49 0B 9D 02  returns 0x01 (0000ms, 0389ms total)
T35C0 009:302 JLINK_ReadMem (0x40000440, 0x0004 Bytes, ...) -- CPU is running -- CPU_ReadMem(4 bytes @ 0x40000440) - Data: 00 00 00 00  returns 0x00 (0001ms, 0390ms total)
T35C0 009:303 JLINK_ReadMem (0x40000400, 0x0010 Bytes, ...) -- CPU is running -- CPU_ReadMem(16 bytes @ 0x40000400) - Data: 01 00 00 00 00 00 00 00 00 00 00 00 00 00 00 00  returns 0x00 (0001ms, 0391ms total)
T35C0 009:304 JLINK_ReadMem (0x40000410, 0x0004 Bytes, ...) -- CPU is running -- CPU_ReadMem(4 bytes @ 0x40000410) - Data: 1F 00 00 00  returns 0x00 (0001ms, 0392ms total)
T35C0 009:305 JLINK_ReadMem (0x40000418, 0x0014 Bytes, ...) -- CPU is running -- CPU_ReadMem(20 bytes @ 0x40000418) - Data: 00 00 00 00 68 68 00 00 00 11 00 00 85 04 00 00 ...  returns 0x00 (0001ms, 0393ms total)
T35C0 009:307 JLINK_ReadMem (0x4000042C, 0x0004 Bytes, ...) -- CPU is running -- CPU_ReadMem(4 bytes @ 0x4000042C) - Data: C4 09 00 00  returns 0x00 (0000ms, 0394ms total)
T35C0 009:308 JLINK_ReadMem (0x40000434, 0x000C Bytes, ...) -- CPU is running -- CPU_ReadMem(12 bytes @ 0x40000434) - Data: 00 00 00 00 00 00 00 00 00 00 00 00  returns 0x00 (0000ms, 0394ms total)
T35C0 009:309 JLINK_ReadMem (0x40000440, 0x0004 Bytes, ...) -- CPU is running -- CPU_ReadMem(4 bytes @ 0x40000440) - Data: 00 00 00 00  returns 0x00 (0000ms, 0395ms total)
T35C0 009:309 JLINK_ReadMem (0x40000448, 0x0004 Bytes, ...) -- CPU is running -- CPU_ReadMem(4 bytes @ 0x40000448) - Data: 00 00 00 00  returns 0x00 (0001ms, 0396ms total)
T35C0 009:310 JLINK_ReadMem (0x4000044C, 0x0004 Bytes, ...) -- CPU is running -- CPU_ReadMem(4 bytes @ 0x4000044C) - Data: 01 00 00 00  returns 0x00 (0001ms, 0397ms total)
T120C 009:321 JLINK_IsHalted()  returns FALSE (0001ms, 0399ms total)
T120C 009:423 JLINK_IsHalted()  returns FALSE (0000ms, 0398ms total)
T120C 009:524 JLINK_IsHalted()  returns FALSE (0000ms, 0398ms total)
T120C 009:626 JLINK_IsHalted()  returns FALSE (0000ms, 0398ms total)
T120C 009:728 JLINK_IsHalted()  returns FALSE (0000ms, 0398ms total)
T120C 009:829 JLINK_ReadMemU32(0xE0001004, 0x0001 Items, ...) -- CPU is running - Data: 49 0B 9D 02  returns 0x01 (0000ms, 0398ms total)
